
T1460 000:238 SEGGER J-Link V4.54c Log File (0001ms, 0239ms total)
T1460 000:238 DLL Compiled: Oct  9 2012 19:55:22 (0001ms, 0239ms total)
T1460 000:238 Logging started @ 2018-07-06 11:16 (0001ms, 0239ms total)
T1460 000:239 JLINK_SetWarnOutHandler(...) (0000ms, 0239ms total)
T1460 000:239 JLINK_OpenEx(...)
Firmware: J-Link V9 compiled Jan 21 2016 18:49:33
Hardware: V9.20
Feature(s): RDI, GDB, FlashDL, FlashBP, JFlash  returns O.K. (0023ms, 0262ms total)
T1460 000:262 JLINK_SetErrorOutHandler(...) (0000ms, 0262ms total)
T1460 000:262 JLINK_ExecCommand("ProjectFile = "D:\stm32\rt-thread-3.0.3\bsp\stm32f429-armfly\JLinkSettings.ini"", ...)
                JLINK_ExecCommand("map ram 0x20000000 - 0x2001FFFF", ...)  returns 0x00 (0000ms, 0000ms total)
                JLINK_AddMirrorAreaEx(Addr = 0x00000000, Size = 0x00000000) (0000ms, 0000ms total)
              Device "STM32F417IG" selected (1024 KB flash, 128 KB RAM).  returns 0x00 (0003ms, 0265ms total)
T1460 000:265 JLINK_ExecCommand("Device = STM32F429ZG", ...)
                JLINK_ExecCommand("map ram 0x20000000 - 0x2001FFFF", ...)  returns 0x00 (0000ms, 0000ms total)
                JLINK_AddMirrorAreaEx(Addr = 0x00000000, Size = 0x00000000) (0000ms, 0000ms total)
              Device "STM32F417IG" selected (1024 KB flash, 128 KB RAM).  returns 0x00 (0003ms, 0268ms total)
T1460 000:268 JLINK_ExecCommand("DisableConnectionTimeout", ...)  returns 0x00 (0000ms, 0268ms total)
T1460 000:268 JLINK_GetHardwareVersion()  returns 0x16760 (0000ms, 0268ms total)
T1460 000:268 JLINK_GetDLLVersion()  returns 45403 (0000ms, 0268ms total)
T1460 000:268 JLINK_GetFirmwareString(...) (0000ms, 0268ms total)
T1460 000:268 JLINK_GetDLLVersion()  returns 45403 (0001ms, 0269ms total)
T1460 000:269 JLINK_GetCompileDateTime() (0000ms, 0269ms total)
T1460 000:269 JLINK_GetFirmwareString(...) (0000ms, 0269ms total)
T1460 000:269 JLINK_GetHardwareVersion()  returns 0x16760 (0000ms, 0269ms total)
T1460 000:269 JLINK_TIF_Select(JLINKARM_TIF_SWD)  returns 0x00 (0000ms, 0269ms total)
T1460 000:269 JLINK_SetSpeed(5000) (0000ms, 0269ms total)
T1460 000:269 JLINK_GetId() >0x108 TIF>Found SWD-DP with ID 0x2BA01477 >0x0D TIF> >0x28 TIF> >0x0D TIF> >0x28 TIF> >0x0D TIF> >0x21 TIF> >0x0D TIF> >0x28 TIF> >0x0D TIF> >0x28 TIF> >0x0D TIF> >0x28 TIF> >0x0D TIF> >0x21 TIF> >0x0D TIF> >0x21 TIF> >0x0D TIF> >0x28 TIF> >0x0D TIF> >0x21 TIF> >0x0D TIF> >0x21 TIF> >0x0D TIF> >0x28 TIF> >0x0D TIF> >0x21 TIF> >0x0D TIF> >0x21 TIF> >0x108 TIF>Found SWD-DP with ID 0x2BA01477 >0x0D TIF> >0x21 TIF> >0x0D TIF> >0x28 TIF> >0x0D TIF> >0x28 TIF> >0x0D TIF> >0x21 TIF>
 >0x0D TIF> >0x21 TIF> >0x0D TIF> >0x28 TIF> >0x0D TIF> >0x21 TIF> >0x0D TIF> >0x21 TIF> >0x0D TIF> >0x21 TIF> >0x0D TIF> >0x21 TIF> >0x0D TIF> >0x21 TIF> >0x0D TIF> >0x28 TIF> >0x0D TIF> >0x28 TIF> >0x0D TIF> >0x21 TIF> >0x0D TIF> >0x21 TIF> >0x0D TIF> >0x28 TIF> >0x0D TIF> >0x21 TIF> >0x0D TIF> >0x21 TIF> >0x0D TIF> >0x28 TIF> >0x0D TIF> >0x28 TIF> >0x0D TIF> >0x28 TIF> >0x0D TIF> >0x21 TIF> >0x0D TIF> >0x21 TIF> >0x0D TIF> >0x28 TIF> >0x0D TIF> >0x21 TIF> >0x0D TIF> >0x21 TIF> >0x0D TIF> >0x21 TIF>
TPIU fitted.ETM fitted. >0x0D TIF> >0x28 TIF> >0x0D TIF> >0x21 TIF> >0x0D TIF> >0x21 TIF> >0x0D TIF> >0x28 TIF> >0x0D TIF> >0x21 TIF> >0x0D TIF> >0x21 TIF>FPUnit: 6 code (BP) slots and 2 literal slots >0x0D TIF> >0x28 TIF> >0x0D TIF> >0x21 TIF> >0x0D TIF> >0x21 TIF> >0x0D TIF> >0x28 TIF> >0x0D TIF> >0x21 TIF> >0x0D TIF> >0x21 TIF> >0x0D TIF> >0x28 TIF> >0x0D TIF> >0x21 TIF> >0x0D TIF> >0x21 TIF> >0x0D TIF> >0x28 TIF> >0x0D TIF> >0x21 TIF> >0x0D TIF> >0x21 TIF>Found Cortex-M4 r0p1, Little endian.
 >0x0D TIF> >0x21 TIF>  returns 0x2BA01477 (0127ms, 0396ms total)
T1460 000:396 JLINK_GetDLLVersion()  returns 45403 (0000ms, 0396ms total)
T1460 000:396 JLINK_CORE_GetFound()  returns 0xE0000FF (0000ms, 0396ms total)
T1460 000:397 JLINK_GetDebugInfo(0x100) -- Value=0xE00FF003  returns 0x00 (0000ms, 0396ms total)
T1460 000:397 JLINK_GetDebugInfo(0x101)  returns 0xFFFFFFFF (0000ms, 0396ms total)
T1460 000:397 JLINK_ReadMem (0xE0041FF0, 0x0010 Bytes, ...) -- CPU is running -- CPU_ReadMem(16 bytes @ 0xE0041FF0) -- Data:  0D 00 00 00 90 00 00 00 05 00 00 00 B1 00 00 00  returns 0x00 (0001ms, 0397ms total)
T1460 000:398 JLINK_GetDebugInfo(0x102)  returns 0xFFFFFFFF (0000ms, 0397ms total)
T1460 000:398 JLINK_GetDebugInfo(0x103)  returns 0xFFFFFFFF (0000ms, 0397ms total)
T1460 000:398 JLINK_ReadMem (0xE0040FF0, 0x0010 Bytes, ...) -- CPU is running -- CPU_ReadMem(16 bytes @ 0xE0040FF0) -- Data:  0D 00 00 00 90 00 00 00 05 00 00 00 B1 00 00 00  returns 0x00 (0001ms, 0398ms total)
T1460 000:399 JLINK_GetDebugInfo(0x104)  returns 0xFFFFFFFF (0000ms, 0398ms total)
T1460 000:399 JLINK_GetDebugInfo(0x105)  returns 0xFFFFFFFF (0000ms, 0398ms total)
T1460 000:399 JLINK_GetDebugInfo(0x106)  returns 0xFFFFFFFF (0000ms, 0398ms total)
T1460 000:399 JLINK_GetDebugInfo(0x107)  returns 0xFFFFFFFF (0000ms, 0398ms total)
T1460 000:399 JLINK_GetDebugInfo(0x10C)  returns 0xFFFFFFFF (0000ms, 0398ms total)
T1460 000:399 JLINK_ReadMemU32(0xE000EF40, 0x0001 Items, ...) -- CPU is running -- CPU_ReadMem(4 bytes @ 0xE000EF40) -- Data:  21 00 11 10  returns 0x01 (0001ms, 0399ms total)
T1460 000:400 JLINK_ReadMemU32(0xE000EF44, 0x0001 Items, ...) -- CPU is running -- CPU_ReadMem(4 bytes @ 0xE000EF44) -- Data:  11 00 00 11  returns 0x01 (0001ms, 0400ms total)
T1460 000:401 JLINK_ReadMemU32(0xE000ED00, 0x0001 Items, ...) -- CPU is running -- CPU_ReadMem(4 bytes @ 0xE000ED00) -- Data:  41 C2 0F 41  returns 0x01 (0001ms, 0401ms total)
T1460 000:402 JLINK_SetResetType(JLINKARM_RESET_TYPE_NORMAL)  returns JLINKARM_RESET_TYPE_NORMAL (0000ms, 0401ms total)
T1460 000:402 JLINK_Reset() -- CPU is running -- CPU_WriteMem(4 bytes @ 0xE000EDF0) -- CPU is running -- CPU_WriteMem(4 bytes @ 0xE000EDFC) >0x35 TIF> -- CPU is running -- CPU_WriteMem(4 bytes @ 0xE000ED0C) -- CPU is running -- CPU_ReadMem(4 bytes @ 0xE000EDF0) -- CPU is running -- CPU_ReadMem(4 bytes @ 0xE000EDF0) -- CPU is running -- CPU_WriteMem(4 bytes @ 0xE000EDF0) -- CPU is running -- CPU_WriteMem(4 bytes @ 0xE000EDFC) -- CPU is running -- CPU_ReadMem(4 bytes @ 0xE000EDF0)
 -- CPU_WriteMem(4 bytes @ 0xE0002000) (0022ms, 0423ms total)
T1460 000:424 JLINK_ReadReg(R15)  returns 0x0800E690 (0000ms, 0423ms total)
T1460 000:424 JLINK_ReadReg(XPSR)  returns 0x01000000 (0000ms, 0423ms total)
T1460 000:424 JLINK_Halt()  returns 0x00 (0000ms, 0423ms total)
T1460 000:424 JLINK_IsHalted()  returns TRUE (0000ms, 0423ms total)
T1460 000:424 JLINK_ReadMemU32(0xE000EDF0, 0x0001 Items, ...) -- CPU_ReadMem(4 bytes @ 0xE000EDF0) -- Data:  03 00 03 00  returns 0x01 (0001ms, 0424ms total)
T1460 000:425 JLINK_WriteU32(0xE000EDF0, 0xA05F0003) -- CPU_WriteMem(4 bytes @ 0xE000EDF0)  returns 0x00 (0001ms, 0425ms total)
T1460 000:426 JLINK_WriteU32(0xE000EDFC, 0x01000000) -- CPU_WriteMem(4 bytes @ 0xE000EDFC)  returns 0x00 (0001ms, 0426ms total)
T1460 000:427 JLINK_GetHWStatus(...)  returns 0x00 (0001ms, 0427ms total)
T1460 000:428 JLINK_GetNumBPUnits(Type = 0xFFFFFF00)  returns 0x06 (0000ms, 0427ms total)
T1460 000:428 JLINK_GetNumBPUnits(Type = 0xF0)  returns 0x2000 (0000ms, 0427ms total)
T1460 000:428 JLINK_GetNumWPUnits()  returns 0x04 (0000ms, 0427ms total)
T1460 000:428 JLINK_GetSpeed()  returns 0xFA0 (0000ms, 0427ms total)
T1460 000:429 JLINK_ReadMemU32(0xE000E004, 0x0001 Items, ...) -- CPU_ReadMem(4 bytes @ 0xE000E004) -- Data:  02 00 00 00  returns 0x01 (0001ms, 0428ms total)
T1460 000:430 JLINK_ReadMemU32(0xE000E004, 0x0001 Items, ...) -- CPU_ReadMem(4 bytes @ 0xE000E004) -- Data:  02 00 00 00  returns 0x01 (0001ms, 0429ms total)
T1460 000:431 JLINK_WriteMem(0xE0001000, 0x001C Bytes, ...) -- Data:  01 00 00 00 00 00 00 00 00 00 00 00 00 00 00 00 ... -- CPU_WriteMem(28 bytes @ 0xE0001000)  returns 0x1C (0001ms, 0430ms total)
T1460 000:432 JLINK_ReadMem (0xE0001000, 0x001C Bytes, ...) -- CPU_ReadMem(28 bytes @ 0xE0001000) -- Data:  01 00 00 40 00 00 00 00 00 00 00 00 00 00 00 00 ...  returns 0x00 (0001ms, 0431ms total)
T1460 000:433 JLINK_ReadReg(R15)  returns 0x0800E690 (0000ms, 0431ms total)
T1460 000:433 JLINK_ReadReg(XPSR)  returns 0x01000000 (0000ms, 0431ms total)
T1460 000:673 JLINK_SetResetType(JLINKARM_RESET_TYPE_NORMAL)  returns JLINKARM_RESET_TYPE_NORMAL (0000ms, 0431ms total)
T1460 000:673 JLINK_Reset() -- CPU_WriteMem(4 bytes @ 0xE000EDF0) -- CPU_WriteMem(4 bytes @ 0xE000EDFC) >0x35 TIF> -- CPU_WriteMem(4 bytes @ 0xE000ED0C) -- CPU_ReadMem(4 bytes @ 0xE000EDF0) -- CPU_ReadMem(4 bytes @ 0xE000EDF0) -- CPU_WriteMem(4 bytes @ 0xE000EDF0) -- CPU_WriteMem(4 bytes @ 0xE000EDFC) -- CPU is running -- CPU_ReadMem(4 bytes @ 0xE000EDF0) -- CPU_WriteMem(4 bytes @ 0xE0002000) (0022ms, 0453ms total)
T1460 000:695 JLINK_ReadReg(R15)  returns 0x0800E690 (0000ms, 0453ms total)
T1460 000:695 JLINK_ReadReg(XPSR)  returns 0x01000000 (0000ms, 0453ms total)
T1460 000:696 JLINK_ReadMem (0x0800E590, 0x003C Bytes, ...) -- CPU_ReadMem(128 bytes @ 0x0800E580) -- Updating C cache (128 bytes @ 0x0800E580) -- Read from C cache (60 bytes @ 0x0800E590) -- Data:  03 F0 18 03 98 08 70 47 FF 0F 0F FF 0F B4 10 B5 ...  returns 0x00 (0001ms, 0454ms total)
T1460 000:697 JLINK_ReadMem (0x0800E5CC, 0x003C Bytes, ...) -- CPU_ReadMem(64 bytes @ 0x0800E600) -- Updating C cache (64 bytes @ 0x0800E600) -- Read from C cache (60 bytes @ 0x0800E5CC) -- Data:  5D F8 14 FB 01 46 D1 F8 80 00 70 47 02 46 08 68 ...  returns 0x00 (0001ms, 0455ms total)
T1460 000:698 JLINK_ReadMem (0x0800E608, 0x003C Bytes, ...) -- CPU_ReadMem(64 bytes @ 0x0800E640) -- Updating C cache (64 bytes @ 0x0800E640) -- Read from C cache (60 bytes @ 0x0800E608) -- Data:  90 60 D1 E9 01 04 20 43 CC 68 20 43 0C 69 20 43 ...  returns 0x00 (0001ms, 0456ms total)
T1460 000:699 JLINK_ReadMem (0x0800E644, 0x003C Bytes, ...) -- Read from C cache (60 bytes @ 0x0800E644) -- Data:  10 B5 02 46 00 23 08 68 50 62 48 68 90 62 D1 E9 ...  returns 0x00 (0000ms, 0456ms total)
T1460 000:699 JLINK_ReadMem (0x0800E680, 0x003C Bytes, ...) -- CPU_ReadMem(64 bytes @ 0x0800E680) -- Updating C cache (64 bytes @ 0x0800E680) -- Read from C cache (60 bytes @ 0x0800E680) -- Data:  02 48 01 60 00 20 70 47 14 2C 01 40 A8 85 25 42 ...  returns 0x00 (0001ms, 0457ms total)
T1460 000:833 JLINK_ReadMem (0x40013000, 0x0020 Bytes, ...) -- CPU_ReadMem(32 bytes @ 0x40013000) -- Data:  00 00 00 00 00 00 00 00 00 00 00 00 00 00 00 00 ...  returns 0x00 (0002ms, 0459ms total)
T1460 000:835 JLINK_ReadMem (0x40013020, 0x0004 Bytes, ...) -- CPU_ReadMem(4 bytes @ 0x40013020) -- Data:  00 00 00 00  returns 0x00 (0000ms, 0459ms total)
T14FC 001:781 JLINK_SetBPEx(Addr = 0x08000786, Type = 0xFFFFFFF2)  returns 0x00000001 (0001ms, 0460ms total)
T14FC 001:782 JLINK_SetBPEx(Addr = 0x0801E43E, Type = 0xFFFFFFF2)  returns 0x00000002 (0000ms, 0460ms total)
T14FC 001:782 JLINK_Go() -- CPU_WriteMem(4 bytes @ 0xE0002008) -- CPU_WriteMem(4 bytes @ 0xE000200C) -- CPU_WriteMem(4 bytes @ 0xE0002010) -- CPU_WriteMem(4 bytes @ 0xE0002014) -- CPU_WriteMem(4 bytes @ 0xE0002018) -- CPU_WriteMem(4 bytes @ 0xE000201C) (0008ms, 0468ms total)
T14FC 001:890 JLINK_IsHalted()  returns TRUE (0003ms, 0471ms total)
T14FC 001:893 JLINK_Halt()  returns 0x00 (0000ms, 0468ms total)
T14FC 001:893 JLINK_IsHalted()  returns TRUE (0000ms, 0468ms total)
T14FC 001:893 JLINK_IsHalted()  returns TRUE (0000ms, 0468ms total)
T14FC 001:893 JLINK_IsHalted()  returns TRUE (0000ms, 0468ms total)
T14FC 001:893 JLINK_ReadReg(R15)  returns 0x08000786 (0000ms, 0468ms total)
T14FC 001:893 JLINK_ReadReg(XPSR)  returns 0x61000000 (0000ms, 0468ms total)
T14FC 001:893 JLINK_ClrBPEx(BPHandle = 0x00000001)  returns 0x00 (0000ms, 0468ms total)
T14FC 001:893 JLINK_ClrBPEx(BPHandle = 0x00000002)  returns 0x00 (0000ms, 0468ms total)
T14FC 001:893 JLINK_ReadMemU32(0xE000ED30, 0x0001 Items, ...) -- CPU_ReadMem(4 bytes @ 0xE000ED30) -- Data:  02 00 00 00  returns 0x01 (0001ms, 0469ms total)
T14FC 001:894 JLINK_ReadMemU32(0xE0001028, 0x0001 Items, ...) -- CPU_ReadMem(4 bytes @ 0xE0001028) -- Data:  00 00 00 00  returns 0x01 (0001ms, 0470ms total)
T14FC 001:895 JLINK_ReadMemU32(0xE0001038, 0x0001 Items, ...) -- CPU_ReadMem(4 bytes @ 0xE0001038) -- Data:  00 02 00 00  returns 0x01 (0001ms, 0471ms total)
T14FC 001:896 JLINK_ReadMemU32(0xE0001048, 0x0001 Items, ...) -- CPU_ReadMem(4 bytes @ 0xE0001048) -- Data:  00 00 00 00  returns 0x01 (0001ms, 0472ms total)
T14FC 001:897 JLINK_ReadMemU32(0xE0001058, 0x0001 Items, ...) -- CPU_ReadMem(4 bytes @ 0xE0001058) -- Data:  00 00 00 00  returns 0x01 (0001ms, 0473ms total)
T14FC 001:898 JLINK_ReadReg(R0)  returns 0x200107F8 (0000ms, 0473ms total)
T14FC 001:898 JLINK_ReadReg(R1)  returns 0x200109F8 (0000ms, 0473ms total)
T14FC 001:898 JLINK_ReadReg(R2)  returns 0x200109F8 (0000ms, 0473ms total)
T14FC 001:898 JLINK_ReadReg(R3)  returns 0x200109F8 (0000ms, 0473ms total)
T14FC 001:898 JLINK_ReadReg(R4)  returns 0x00000000 (0000ms, 0473ms total)
T14FC 001:898 JLINK_ReadReg(R5)  returns 0x20010794 (0000ms, 0473ms total)
T14FC 001:898 JLINK_ReadReg(R6)  returns 0x00000000 (0000ms, 0473ms total)
T14FC 001:898 JLINK_ReadReg(R7)  returns 0x00000000 (0000ms, 0473ms total)
T14FC 001:898 JLINK_ReadReg(R8)  returns 0x00000000 (0000ms, 0473ms total)
T14FC 001:898 JLINK_ReadReg(R9)  returns 0x00000000 (0000ms, 0473ms total)
T14FC 001:898 JLINK_ReadReg(R10)  returns 0x0803904C (0000ms, 0473ms total)
T14FC 001:898 JLINK_ReadReg(R11)  returns 0x00000000 (0000ms, 0473ms total)
T14FC 001:898 JLINK_ReadReg(R12)  returns 0x200107D4 (0000ms, 0473ms total)
T14FC 001:898 JLINK_ReadReg(R13)  returns 0x20010DF8 (0000ms, 0473ms total)
T14FC 001:898 JLINK_ReadReg(R14)  returns 0x08000335 (0000ms, 0473ms total)
T14FC 001:899 JLINK_ReadReg(R15)  returns 0x08000786 (0000ms, 0474ms total)
T14FC 001:899 JLINK_ReadReg(XPSR)  returns 0x61000000 (0000ms, 0474ms total)
T14FC 001:899 JLINK_ReadReg(MSP)  returns 0x20010DF8 (0000ms, 0474ms total)
T14FC 001:899 JLINK_ReadReg(PSP)  returns 0x00000000 (0000ms, 0474ms total)
T14FC 001:899 JLINK_ReadReg(CFBP)  returns 0x04000000 (0000ms, 0474ms total)
T14FC 001:899 JLINK_ReadReg(FPSCR)  returns 0x03000000 (0003ms, 0477ms total)
T14FC 001:902 JLINK_ReadReg(FPS0)  returns 0x00000000 (0001ms, 0478ms total)
T14FC 001:903 JLINK_ReadReg(FPS1)  returns 0x00000000 (0000ms, 0478ms total)
T14FC 001:903 JLINK_ReadReg(FPS2)  returns 0x00000000 (0000ms, 0478ms total)
T14FC 001:903 JLINK_ReadReg(FPS3)  returns 0x00000000 (0000ms, 0478ms total)
T14FC 001:903 JLINK_ReadReg(FPS4)  returns 0x00000000 (0000ms, 0478ms total)
T14FC 001:903 JLINK_ReadReg(FPS5)  returns 0x00000000 (0000ms, 0478ms total)
T14FC 001:903 JLINK_ReadReg(FPS6)  returns 0x00000000 (0000ms, 0478ms total)
T14FC 001:903 JLINK_ReadReg(FPS7)  returns 0x00000000 (0000ms, 0478ms total)
T14FC 001:903 JLINK_ReadReg(FPS8)  returns 0x00000000 (0000ms, 0478ms total)
T14FC 001:903 JLINK_ReadReg(FPS9)  returns 0x00000000 (0000ms, 0478ms total)
T14FC 001:903 JLINK_ReadReg(FPS10)  returns 0x00000000 (0000ms, 0478ms total)
T14FC 001:903 JLINK_ReadReg(FPS11)  returns 0x00000000 (0000ms, 0478ms total)
T14FC 001:903 JLINK_ReadReg(FPS12)  returns 0x00000000 (0000ms, 0478ms total)
T14FC 001:903 JLINK_ReadReg(FPS13)  returns 0x00000000 (0000ms, 0478ms total)
T14FC 001:903 JLINK_ReadReg(FPS14)  returns 0x00000000 (0000ms, 0478ms total)
T14FC 001:903 JLINK_ReadReg(FPS15)  returns 0x00000000 (0000ms, 0478ms total)
T14FC 001:903 JLINK_ReadReg(FPS16)  returns 0x00000000 (0000ms, 0478ms total)
T14FC 001:903 JLINK_ReadReg(FPS17)  returns 0x00000000 (0000ms, 0478ms total)
T14FC 001:903 JLINK_ReadReg(FPS18)  returns 0x00000000 (0000ms, 0478ms total)
T14FC 001:903 JLINK_ReadReg(FPS19)  returns 0x00000000 (0000ms, 0478ms total)
T14FC 001:903 JLINK_ReadReg(FPS20)  returns 0x00000000 (0000ms, 0478ms total)
T14FC 001:903 JLINK_ReadReg(FPS21)  returns 0x00000000 (0000ms, 0478ms total)
T14FC 001:903 JLINK_ReadReg(FPS22)  returns 0x00000000 (0000ms, 0478ms total)
T14FC 001:903 JLINK_ReadReg(FPS23)  returns 0x00000000 (0000ms, 0478ms total)
T14FC 001:903 JLINK_ReadReg(FPS24)  returns 0x00000000 (0000ms, 0478ms total)
T14FC 001:903 JLINK_ReadReg(FPS25)  returns 0x00000000 (0000ms, 0478ms total)
T14FC 001:903 JLINK_ReadReg(FPS26)  returns 0x00000000 (0000ms, 0478ms total)
T14FC 001:903 JLINK_ReadReg(FPS27)  returns 0x00000000 (0000ms, 0478ms total)
T14FC 001:903 JLINK_ReadReg(FPS28)  returns 0x00000000 (0000ms, 0478ms total)
T14FC 001:903 JLINK_ReadReg(FPS29)  returns 0x00000000 (0000ms, 0478ms total)
T14FC 001:903 JLINK_ReadReg(FPS30)  returns 0x00000000 (0000ms, 0478ms total)
T14FC 001:903 JLINK_ReadReg(FPS31)  returns 0x00000000 (0000ms, 0478ms total)
T1460 001:904 JLINK_ReadMemU32(0xE0001004, 0x0001 Items, ...) -- CPU_ReadMem(4 bytes @ 0xE0001004) -- Data:  C6 BB 00 00  returns 0x01 (0002ms, 0480ms total)
T1460 001:906 JLINK_ReadMem (0x40013000, 0x0020 Bytes, ...) -- CPU_ReadMem(32 bytes @ 0x40013000) -- Data:  00 00 00 00 00 00 00 00 00 00 00 00 00 00 00 00 ...  returns 0x00 (0001ms, 0481ms total)
T1460 001:907 JLINK_ReadMem (0x40013020, 0x0004 Bytes, ...) -- CPU_ReadMem(4 bytes @ 0x40013020) -- Data:  00 00 00 00  returns 0x00 (0001ms, 0482ms total)
T1460 001:911 JLINK_ReadMem (0x08000784, 0x003C Bytes, ...) -- CPU_ReadMem(64 bytes @ 0x08000780) -- Updating C cache (64 bytes @ 0x08000780) -- Read from C cache (60 bytes @ 0x08000784) -- Data:  10 BD 10 B5 12 F0 26 FD FF F7 D7 FF 00 20 10 BD ...  returns 0x00 (0002ms, 0484ms total)
T1460 012:618 JLINK_ReadMem (0x0801E466, 0x0002 Bytes, ...) -- CPU_ReadMem(64 bytes @ 0x0801E440) -- Updating C cache (64 bytes @ 0x0801E440) -- Read from C cache (2 bytes @ 0x0801E466) -- Data:  58 49  returns 0x00 (0002ms, 0486ms total)
T1460 012:620 JLINK_ReadMem (0x0801E468, 0x003C Bytes, ...) -- CPU_ReadMem(64 bytes @ 0x0801E480) -- Updating C cache (64 bytes @ 0x0801E480) -- Read from C cache (60 bytes @ 0x0801E468) -- Data:  01 22 48 6D 02 A9 00 F0 97 F9 04 20 02 90 54 49 ...  returns 0x00 (0001ms, 0487ms total)
T14FC 021:639 JLINK_SetBPEx(Addr = 0x0801E43E, Type = 0xFFFFFFF2)  returns 0x00000003 (0001ms, 0488ms total)
T14FC 021:640 JLINK_Go() -- CPU_WriteMem(4 bytes @ 0xE0002008) -- CPU_WriteMem(4 bytes @ 0xE000200C) (0004ms, 0492ms total)
T14FC 021:744 JLINK_IsHalted()  returns FALSE (0001ms, 0493ms total)
T14FC 021:845 JLINK_IsHalted()  returns TRUE (0003ms, 0495ms total)
T14FC 021:848 JLINK_Halt()  returns 0x00 (0000ms, 0492ms total)
T14FC 021:848 JLINK_IsHalted()  returns TRUE (0000ms, 0492ms total)
T14FC 021:848 JLINK_IsHalted()  returns TRUE (0000ms, 0492ms total)
T14FC 021:848 JLINK_IsHalted()  returns TRUE (0000ms, 0492ms total)
T14FC 021:848 JLINK_ReadReg(R15)  returns 0x0801E43E (0000ms, 0492ms total)
T14FC 021:848 JLINK_ReadReg(XPSR)  returns 0x61000000 (0000ms, 0492ms total)
T14FC 021:848 JLINK_ClrBPEx(BPHandle = 0x00000003)  returns 0x00 (0000ms, 0492ms total)
T14FC 021:848 JLINK_ReadMemU32(0xE000ED30, 0x0001 Items, ...) -- CPU_ReadMem(4 bytes @ 0xE000ED30) -- Data:  02 00 00 00  returns 0x01 (0001ms, 0493ms total)
T14FC 021:849 JLINK_ReadMemU32(0xE0001028, 0x0001 Items, ...) -- CPU_ReadMem(4 bytes @ 0xE0001028) -- Data:  00 00 00 00  returns 0x01 (0001ms, 0494ms total)
T14FC 021:850 JLINK_ReadMemU32(0xE0001038, 0x0001 Items, ...) -- CPU_ReadMem(4 bytes @ 0xE0001038) -- Data:  00 02 00 00  returns 0x01 (0001ms, 0495ms total)
T14FC 021:851 JLINK_ReadMemU32(0xE0001048, 0x0001 Items, ...) -- CPU_ReadMem(4 bytes @ 0xE0001048) -- Data:  00 00 00 00  returns 0x01 (0001ms, 0496ms total)
T14FC 021:852 JLINK_ReadMemU32(0xE0001058, 0x0001 Items, ...) -- CPU_ReadMem(4 bytes @ 0xE0001058) -- Data:  00 00 00 00  returns 0x01 (0001ms, 0497ms total)
T14FC 021:853 JLINK_ReadReg(R0)  returns 0x20005C34 (0000ms, 0497ms total)
T14FC 021:853 JLINK_ReadReg(R1)  returns 0x80409400 (0000ms, 0497ms total)
T14FC 021:853 JLINK_ReadReg(R2)  returns 0x00000094 (0000ms, 0497ms total)
T14FC 021:853 JLINK_ReadReg(R3)  returns 0x20005C3A (0000ms, 0497ms total)
T14FC 021:853 JLINK_ReadReg(R4)  returns 0x08038C88 (0000ms, 0497ms total)
T14FC 021:853 JLINK_ReadReg(R5)  returns 0x20005C34 (0000ms, 0497ms total)
T14FC 021:853 JLINK_ReadReg(R6)  returns 0x08002B48 (0000ms, 0497ms total)
T14FC 021:853 JLINK_ReadReg(R7)  returns 0x08002B3C (0000ms, 0497ms total)
T14FC 021:853 JLINK_ReadReg(R8)  returns 0xDEADBEEF (0000ms, 0497ms total)
T14FC 021:853 JLINK_ReadReg(R9)  returns 0xDEADBEEF (0000ms, 0497ms total)
T14FC 021:853 JLINK_ReadReg(R10)  returns 0xDEADBEEF (0000ms, 0497ms total)
T14FC 021:853 JLINK_ReadReg(R11)  returns 0xDEADBEEF (0000ms, 0497ms total)
T14FC 021:853 JLINK_ReadReg(R12)  returns 0x0801D4D5 (0000ms, 0497ms total)
T14FC 021:853 JLINK_ReadReg(R13)  returns 0xC0000860 (0000ms, 0497ms total)
T14FC 021:853 JLINK_ReadReg(R14)  returns 0x0801223B (0000ms, 0497ms total)
T14FC 021:853 JLINK_ReadReg(R15)  returns 0x0801E43E (0000ms, 0497ms total)
T14FC 021:854 JLINK_ReadReg(XPSR)  returns 0x61000000 (0000ms, 0497ms total)
T14FC 021:854 JLINK_ReadReg(MSP)  returns 0x20010DD8 (0000ms, 0497ms total)
T14FC 021:854 JLINK_ReadReg(PSP)  returns 0xC0000860 (0000ms, 0497ms total)
T14FC 021:854 JLINK_ReadReg(CFBP)  returns 0x02000000 (0000ms, 0497ms total)
T14FC 021:854 JLINK_ReadReg(FPSCR)  returns 0x03000000 (0003ms, 0500ms total)
T14FC 021:857 JLINK_ReadReg(FPS0)  returns 0x00000000 (0000ms, 0500ms total)
T14FC 021:858 JLINK_ReadReg(FPS1)  returns 0x00000000 (0000ms, 0501ms total)
T14FC 021:858 JLINK_ReadReg(FPS2)  returns 0x00000000 (0000ms, 0501ms total)
T14FC 021:858 JLINK_ReadReg(FPS3)  returns 0x00000000 (0000ms, 0501ms total)
T14FC 021:858 JLINK_ReadReg(FPS4)  returns 0x00000000 (0000ms, 0501ms total)
T14FC 021:858 JLINK_ReadReg(FPS5)  returns 0x00000000 (0000ms, 0501ms total)
T14FC 021:858 JLINK_ReadReg(FPS6)  returns 0x00000000 (0000ms, 0501ms total)
T14FC 021:858 JLINK_ReadReg(FPS7)  returns 0x00000000 (0000ms, 0501ms total)
T14FC 021:858 JLINK_ReadReg(FPS8)  returns 0x00000000 (0000ms, 0501ms total)
T14FC 021:858 JLINK_ReadReg(FPS9)  returns 0x00000000 (0000ms, 0501ms total)
T14FC 021:858 JLINK_ReadReg(FPS10)  returns 0x00000000 (0000ms, 0501ms total)
T14FC 021:858 JLINK_ReadReg(FPS11)  returns 0x00000000 (0000ms, 0501ms total)
T14FC 021:858 JLINK_ReadReg(FPS12)  returns 0x00000000 (0000ms, 0501ms total)
T14FC 021:858 JLINK_ReadReg(FPS13)  returns 0x00000000 (0000ms, 0501ms total)
T14FC 021:858 JLINK_ReadReg(FPS14)  returns 0x00000000 (0000ms, 0501ms total)
T14FC 021:858 JLINK_ReadReg(FPS15)  returns 0x00000000 (0000ms, 0501ms total)
T14FC 021:858 JLINK_ReadReg(FPS16)  returns 0x00000000 (0000ms, 0501ms total)
T14FC 021:858 JLINK_ReadReg(FPS17)  returns 0x00000000 (0000ms, 0501ms total)
T14FC 021:858 JLINK_ReadReg(FPS18)  returns 0x00000000 (0000ms, 0501ms total)
T14FC 021:858 JLINK_ReadReg(FPS19)  returns 0x00000000 (0000ms, 0501ms total)
T14FC 021:858 JLINK_ReadReg(FPS20)  returns 0x00000000 (0000ms, 0501ms total)
T14FC 021:858 JLINK_ReadReg(FPS21)  returns 0x00000000 (0000ms, 0501ms total)
T14FC 021:858 JLINK_ReadReg(FPS22)  returns 0x00000000 (0000ms, 0501ms total)
T14FC 021:858 JLINK_ReadReg(FPS23)  returns 0x00000000 (0000ms, 0501ms total)
T14FC 021:858 JLINK_ReadReg(FPS24)  returns 0x00000000 (0000ms, 0501ms total)
T14FC 021:858 JLINK_ReadReg(FPS25)  returns 0x00000000 (0000ms, 0501ms total)
T14FC 021:858 JLINK_ReadReg(FPS26)  returns 0x00000000 (0000ms, 0501ms total)
T14FC 021:858 JLINK_ReadReg(FPS27)  returns 0x00000000 (0000ms, 0501ms total)
T14FC 021:858 JLINK_ReadReg(FPS28)  returns 0x00000000 (0000ms, 0501ms total)
T14FC 021:858 JLINK_ReadReg(FPS29)  returns 0x00000000 (0000ms, 0501ms total)
T14FC 021:858 JLINK_ReadReg(FPS30)  returns 0x00000000 (0000ms, 0501ms total)
T14FC 021:858 JLINK_ReadReg(FPS31)  returns 0x00000000 (0000ms, 0501ms total)
T1460 021:861 JLINK_ReadMem (0xC000087C, 0x0004 Bytes, ...) -- CPU_ReadMem(4 bytes @ 0xC000087C) -- Data:  1D 2B 00 08  returns 0x00 (0002ms, 0503ms total)
T1460 021:863 JLINK_ReadMem (0xC000086C, 0x0004 Bytes, ...) -- CPU_ReadMem(4 bytes @ 0xC000086C) -- Data:  88 8C 03 08  returns 0x00 (0001ms, 0504ms total)
T1460 021:864 JLINK_ReadMem (0xC0000870, 0x0004 Bytes, ...) -- CPU_ReadMem(4 bytes @ 0xC0000870) -- Data:  00 00 00 00  returns 0x00 (0001ms, 0505ms total)
T1460 021:865 JLINK_ReadMem (0xC0000874, 0x0004 Bytes, ...) -- CPU_ReadMem(4 bytes @ 0xC0000874) -- Data:  EF BE AD DE  returns 0x00 (0001ms, 0506ms total)
T1460 021:866 JLINK_ReadMem (0xC0000878, 0x0004 Bytes, ...) -- CPU_ReadMem(4 bytes @ 0xC0000878) -- Data:  EF BE AD DE  returns 0x00 (0001ms, 0507ms total)
T1460 021:867 JLINK_ReadMem (0xC0000884, 0x0004 Bytes, ...) -- CPU_ReadMem(4 bytes @ 0xC0000884) -- Data:  8B E7 00 08  returns 0x00 (0001ms, 0508ms total)
T1460 021:868 JLINK_ReadMem (0xC0000880, 0x0004 Bytes, ...) -- CPU_ReadMem(4 bytes @ 0xC0000880) -- Data:  88 8C 03 08  returns 0x00 (0001ms, 0509ms total)
T1460 021:869 JLINK_ReadMem (0xC0000894, 0x0004 Bytes, ...) -- CPU_ReadMem(4 bytes @ 0xC0000894) -- Data:  81 03 00 08  returns 0x00 (0001ms, 0510ms total)
T1460 021:870 JLINK_ReadMem (0xC0000888, 0x0004 Bytes, ...) -- CPU_ReadMem(4 bytes @ 0xC0000888) -- Data:  00 00 00 00  returns 0x00 (0001ms, 0511ms total)
T1460 021:871 JLINK_ReadMem (0xC000088C, 0x0004 Bytes, ...) -- CPU_ReadMem(4 bytes @ 0xC000088C) -- Data:  EF BE AD DE  returns 0x00 (0001ms, 0512ms total)
T1460 021:872 JLINK_ReadMem (0xC0000890, 0x0004 Bytes, ...) -- CPU_ReadMem(4 bytes @ 0xC0000890) -- Data:  EF BE AD DE  returns 0x00 (0001ms, 0513ms total)
T1460 021:873 JLINK_ReadMem (0xC00008A4, 0x0004 Bytes, ...) -- CPU_ReadMem(4 bytes @ 0xC00008A4) -- Data:  27 24 01 08  returns 0x00 (0001ms, 0514ms total)
T1460 021:874 JLINK_ReadMem (0xC000089C, 0x0004 Bytes, ...) -- CPU_ReadMem(4 bytes @ 0xC000089C) -- Data:  EF BE AD DE  returns 0x00 (0001ms, 0515ms total)
T1460 021:875 JLINK_ReadMem (0xC00008A0, 0x0004 Bytes, ...) -- CPU_ReadMem(4 bytes @ 0xC00008A0) -- Data:  EF BE AD DE  returns 0x00 (0001ms, 0516ms total)
T1460 021:876 JLINK_ReadMem (0xC00008BC, 0x0004 Bytes, ...) -- CPU_ReadMem(4 bytes @ 0xC00008BC) -- Data:  65 72 5F 70  returns 0x00 (0001ms, 0517ms total)
T1460 021:877 JLINK_ReadMem (0xC00008A8, 0x0004 Bytes, ...) -- CPU_ReadMem(4 bytes @ 0xC00008A8) -- Data:  A0 1E 01 00  returns 0x00 (0001ms, 0518ms total)
T1460 021:878 JLINK_ReadMem (0xC00008AC, 0x0004 Bytes, ...) -- CPU_ReadMem(4 bytes @ 0xC00008AC) -- Data:  44 09 00 00  returns 0x00 (0001ms, 0519ms total)
T1460 021:879 JLINK_ReadMem (0xC00008B0, 0x0004 Bytes, ...) -- CPU_ReadMem(4 bytes @ 0xC00008B0) -- Data:  9C 00 00 00  returns 0x00 (0001ms, 0520ms total)
T1460 021:880 JLINK_ReadMem (0xC00008B4, 0x0004 Bytes, ...) -- CPU_ReadMem(4 bytes @ 0xC00008B4) -- Data:  72 69 6E 67  returns 0x00 (0001ms, 0521ms total)
T1460 021:881 JLINK_ReadMem (0xC00008B8, 0x0004 Bytes, ...) -- CPU_ReadMem(4 bytes @ 0xC00008B8) -- Data:  62 75 66 66  returns 0x00 (0001ms, 0522ms total)
T1460 021:883 JLINK_ReadMem (0x08002B48, 0x0020 Bytes, ...) -- CPU_ReadMem(64 bytes @ 0x08002B40) -- Updating C cache (64 bytes @ 0x08002B40) -- Read from C cache (32 bytes @ 0x08002B48) -- Data:  57 32 35 51 36 34 00 00 10 B5 E4 48 E4 49 08 60 ...  returns 0x00 (0001ms, 0523ms total)
T1460 021:884 JLINK_ReadMem (0x08002B3C, 0x0020 Bytes, ...) -- CPU_ReadMem(64 bytes @ 0x08002B00) -- Updating C cache (64 bytes @ 0x08002B00) -- Read from C cache (32 bytes @ 0x08002B3C) -- Data:  73 70 69 31 30 00 00 00 34 5C 00 20 57 32 35 51 ...  returns 0x00 (0001ms, 0524ms total)
T1460 021:885 JLINK_ReadMem (0x00000000, 0x0001 Bytes, ...)
                JLINK_ReadMemHW(0x00000000, 0x0004 Bytes, ...) -- CPU_ReadMem(4 bytes @ 0x00000000) -- Data:  F8 0D 01 20  returns 0x00 (0000ms, 0000ms total)
                JLINK_ReadMemHW(0x08000000, 0x0004 Bytes, ...) -- CPU_ReadMem(4 bytes @ 0x08000000) -- Data:  F8 0D 01 20  returns 0x00 (0001ms, 0001ms total)
                JLINK_WriteMemHW(0x00000000, 0x0004 Bytes, ...) -- Data:  09 00 02 00 -- CPU_WriteMem(4 bytes @ 0x00000000)  returns 0x04 (0001ms, 0002ms total)
                JLINK_ReadMemHW(0x00000000, 0x0004 Bytes, ...) -- CPU_ReadMem(4 bytes @ 0x00000000) -- Data:  F8 0D 01 20  returns 0x00 (0001ms, 0003ms total)
               -- MA0 is in flash -- Unmirror addr 0x00000000 -- CPU_ReadMem(64 bytes @ 0x08000000) -- Updating C cache (64 bytes @ 0x08000000) -- Read from C cache (1 bytes @ 0x08000000) -- Data:  F8  returns 0x00 (0005ms, 0529ms total)
T1460 021:890 JLINK_ReadMem (0x00000000, 0x0002 Bytes, ...) -- Unmirror addr 0x00000000 -- Read from C cache (2 bytes @ 0x08000000) -- Data:  F8 0D  returns 0x00 (0001ms, 0530ms total)
T1460 021:891 JLINK_ReadMemU32(0xE0001004, 0x0001 Items, ...) -- CPU_ReadMem(4 bytes @ 0xE0001004) -- Data:  5B AB 6E 01  returns 0x01 (0002ms, 0532ms total)
T1460 021:893 JLINK_ReadMem (0x40013000, 0x0020 Bytes, ...) -- CPU_ReadMem(32 bytes @ 0x40013000) -- Data:  00 00 00 00 00 00 00 00 02 00 00 00 00 00 00 00 ...  returns 0x00 (0002ms, 0534ms total)
T1460 021:895 JLINK_ReadMem (0x40013020, 0x0004 Bytes, ...) -- CPU_ReadMem(4 bytes @ 0x40013020) -- Data:  00 00 00 00  returns 0x00 (0001ms, 0535ms total)
T1460 021:906 JLINK_ReadMem (0x0801E438, 0x003C Bytes, ...) -- CPU_ReadMem(128 bytes @ 0x0801E400) -- Updating C cache (128 bytes @ 0x0801E400) -- Read from C cache (60 bytes @ 0x0801E438) -- Data:  6F F0 05 00 F2 E7 62 48 45 65 08 20 8D F8 05 00 ...  returns 0x00 (0001ms, 0536ms total)
T14FC 023:284 JLINK_Step() -- Read from C cache (2 bytes @ 0x0801E43E) -- CPU_ReadMem(64 bytes @ 0x0801E5C0) -- Updating C cache (64 bytes @ 0x0801E5C0) -- Read from C cache (4 bytes @ 0x0801E5C8) -- Simulated  returns 0x00 (0004ms, 0540ms total)
T14FC 023:288 JLINK_ReadReg(R15)  returns 0x0801E440 (0000ms, 0540ms total)
T14FC 023:288 JLINK_ReadReg(XPSR)  returns 0x61000000 (0000ms, 0540ms total)
T14FC 023:288 JLINK_Step() -- Read from C cache (2 bytes @ 0x0801E440) -- CPU_WriteMem(4 bytes @ 0x20007138) -- Invalidate MA0 status -- Simulated  returns 0x00 (0001ms, 0541ms total)
T14FC 023:289 JLINK_ReadReg(R15)  returns 0x0801E442 (0000ms, 0541ms total)
T14FC 023:289 JLINK_ReadReg(XPSR)  returns 0x61000000 (0000ms, 0541ms total)
T14FC 023:289 JLINK_ReadReg(R0)  returns 0x200070E4 (0000ms, 0541ms total)
T14FC 023:289 JLINK_ReadReg(R1)  returns 0x80409400 (0000ms, 0541ms total)
T14FC 023:289 JLINK_ReadReg(R2)  returns 0x00000094 (0000ms, 0541ms total)
T14FC 023:289 JLINK_ReadReg(R3)  returns 0x20005C3A (0000ms, 0541ms total)
T14FC 023:289 JLINK_ReadReg(R4)  returns 0x08038C88 (0000ms, 0541ms total)
T14FC 023:289 JLINK_ReadReg(R5)  returns 0x20005C34 (0000ms, 0541ms total)
T14FC 023:289 JLINK_ReadReg(R6)  returns 0x08002B48 (0000ms, 0541ms total)
T14FC 023:289 JLINK_ReadReg(R7)  returns 0x08002B3C (0000ms, 0541ms total)
T14FC 023:289 JLINK_ReadReg(R8)  returns 0xDEADBEEF (0000ms, 0541ms total)
T14FC 023:289 JLINK_ReadReg(R9)  returns 0xDEADBEEF (0000ms, 0541ms total)
T14FC 023:289 JLINK_ReadReg(R10)  returns 0xDEADBEEF (0000ms, 0541ms total)
T14FC 023:289 JLINK_ReadReg(R11)  returns 0xDEADBEEF (0000ms, 0541ms total)
T14FC 023:289 JLINK_ReadReg(R12)  returns 0x0801D4D5 (0000ms, 0541ms total)
T14FC 023:289 JLINK_ReadReg(R13)  returns 0xC0000860 (0000ms, 0541ms total)
T14FC 023:289 JLINK_ReadReg(R14)  returns 0x0801223B (0000ms, 0541ms total)
T14FC 023:289 JLINK_ReadReg(R15)  returns 0x0801E442 (0000ms, 0541ms total)
T14FC 023:289 JLINK_ReadReg(XPSR)  returns 0x61000000 (0000ms, 0541ms total)
T14FC 023:289 JLINK_ReadReg(MSP)  returns 0x20010DD8 (0000ms, 0541ms total)
T14FC 023:289 JLINK_ReadReg(PSP)  returns 0xC0000860 (0000ms, 0541ms total)
T14FC 023:289 JLINK_ReadReg(CFBP)  returns 0x02000000 (0000ms, 0541ms total)
T14FC 023:289 JLINK_ReadReg(FPSCR)  returns 0x03000000 (0000ms, 0541ms total)
T14FC 023:289 JLINK_ReadReg(FPS0)  returns 0x00000000 (0000ms, 0541ms total)
T14FC 023:289 JLINK_ReadReg(FPS1)  returns 0x00000000 (0000ms, 0541ms total)
T14FC 023:289 JLINK_ReadReg(FPS2)  returns 0x00000000 (0000ms, 0541ms total)
T14FC 023:289 JLINK_ReadReg(FPS3)  returns 0x00000000 (0000ms, 0541ms total)
T14FC 023:289 JLINK_ReadReg(FPS4)  returns 0x00000000 (0000ms, 0541ms total)
T14FC 023:289 JLINK_ReadReg(FPS5)  returns 0x00000000 (0000ms, 0541ms total)
T14FC 023:289 JLINK_ReadReg(FPS6)  returns 0x00000000 (0001ms, 0542ms total)
T14FC 023:290 JLINK_ReadReg(FPS7)  returns 0x00000000 (0000ms, 0542ms total)
T14FC 023:290 JLINK_ReadReg(FPS8)  returns 0x00000000 (0000ms, 0542ms total)
T14FC 023:290 JLINK_ReadReg(FPS9)  returns 0x00000000 (0000ms, 0542ms total)
T14FC 023:290 JLINK_ReadReg(FPS10)  returns 0x00000000 (0000ms, 0542ms total)
T14FC 023:290 JLINK_ReadReg(FPS11)  returns 0x00000000 (0000ms, 0542ms total)
T14FC 023:290 JLINK_ReadReg(FPS12)  returns 0x00000000 (0000ms, 0542ms total)
T14FC 023:290 JLINK_ReadReg(FPS13)  returns 0x00000000 (0000ms, 0542ms total)
T14FC 023:290 JLINK_ReadReg(FPS14)  returns 0x00000000 (0000ms, 0542ms total)
T14FC 023:290 JLINK_ReadReg(FPS15)  returns 0x00000000 (0000ms, 0542ms total)
T14FC 023:290 JLINK_ReadReg(FPS16)  returns 0x00000000 (0000ms, 0542ms total)
T14FC 023:290 JLINK_ReadReg(FPS17)  returns 0x00000000 (0000ms, 0542ms total)
T14FC 023:290 JLINK_ReadReg(FPS18)  returns 0x00000000 (0000ms, 0542ms total)
T14FC 023:290 JLINK_ReadReg(FPS19)  returns 0x00000000 (0000ms, 0542ms total)
T14FC 023:290 JLINK_ReadReg(FPS20)  returns 0x00000000 (0000ms, 0542ms total)
T14FC 023:290 JLINK_ReadReg(FPS21)  returns 0x00000000 (0000ms, 0542ms total)
T14FC 023:290 JLINK_ReadReg(FPS22)  returns 0x00000000 (0000ms, 0542ms total)
T14FC 023:290 JLINK_ReadReg(FPS23)  returns 0x00000000 (0000ms, 0542ms total)
T14FC 023:290 JLINK_ReadReg(FPS24)  returns 0x00000000 (0000ms, 0542ms total)
T14FC 023:290 JLINK_ReadReg(FPS25)  returns 0x00000000 (0000ms, 0542ms total)
T14FC 023:290 JLINK_ReadReg(FPS26)  returns 0x00000000 (0000ms, 0542ms total)
T14FC 023:290 JLINK_ReadReg(FPS27)  returns 0x00000000 (0000ms, 0542ms total)
T14FC 023:290 JLINK_ReadReg(FPS28)  returns 0x00000000 (0000ms, 0542ms total)
T14FC 023:290 JLINK_ReadReg(FPS29)  returns 0x00000000 (0000ms, 0542ms total)
T14FC 023:290 JLINK_ReadReg(FPS30)  returns 0x00000000 (0000ms, 0542ms total)
T14FC 023:290 JLINK_ReadReg(FPS31)  returns 0x00000000 (0000ms, 0542ms total)
T1460 023:292 JLINK_ReadMem (0xC000087C, 0x0004 Bytes, ...) -- CPU_ReadMem(4 bytes @ 0xC000087C) -- Data:  1D 2B 00 08  returns 0x00 (0002ms, 0544ms total)
T1460 023:294 JLINK_ReadMem (0xC000086C, 0x0004 Bytes, ...) -- CPU_ReadMem(4 bytes @ 0xC000086C) -- Data:  88 8C 03 08  returns 0x00 (0001ms, 0545ms total)
T1460 023:295 JLINK_ReadMem (0xC0000870, 0x0004 Bytes, ...) -- CPU_ReadMem(4 bytes @ 0xC0000870) -- Data:  00 00 00 00  returns 0x00 (0001ms, 0546ms total)
T1460 023:296 JLINK_ReadMem (0xC0000874, 0x0004 Bytes, ...) -- CPU_ReadMem(4 bytes @ 0xC0000874) -- Data:  EF BE AD DE  returns 0x00 (0001ms, 0547ms total)
T1460 023:297 JLINK_ReadMem (0xC0000878, 0x0004 Bytes, ...) -- CPU_ReadMem(4 bytes @ 0xC0000878) -- Data:  EF BE AD DE  returns 0x00 (0001ms, 0548ms total)
T1460 023:298 JLINK_ReadMem (0xC0000884, 0x0004 Bytes, ...) -- CPU_ReadMem(4 bytes @ 0xC0000884) -- Data:  8B E7 00 08  returns 0x00 (0001ms, 0549ms total)
T1460 023:299 JLINK_ReadMem (0xC0000880, 0x0004 Bytes, ...) -- CPU_ReadMem(4 bytes @ 0xC0000880) -- Data:  88 8C 03 08  returns 0x00 (0001ms, 0550ms total)
T1460 023:300 JLINK_ReadMem (0xC0000894, 0x0004 Bytes, ...) -- CPU_ReadMem(4 bytes @ 0xC0000894) -- Data:  81 03 00 08  returns 0x00 (0001ms, 0551ms total)
T1460 023:301 JLINK_ReadMem (0xC0000888, 0x0004 Bytes, ...) -- CPU_ReadMem(4 bytes @ 0xC0000888) -- Data:  00 00 00 00  returns 0x00 (0001ms, 0552ms total)
T1460 023:302 JLINK_ReadMem (0xC000088C, 0x0004 Bytes, ...) -- CPU_ReadMem(4 bytes @ 0xC000088C) -- Data:  EF BE AD DE  returns 0x00 (0001ms, 0553ms total)
T1460 023:303 JLINK_ReadMem (0xC0000890, 0x0004 Bytes, ...) -- CPU_ReadMem(4 bytes @ 0xC0000890) -- Data:  EF BE AD DE  returns 0x00 (0001ms, 0554ms total)
T1460 023:304 JLINK_ReadMem (0xC00008A4, 0x0004 Bytes, ...) -- CPU_ReadMem(4 bytes @ 0xC00008A4) -- Data:  27 24 01 08  returns 0x00 (0001ms, 0555ms total)
T1460 023:305 JLINK_ReadMem (0xC000089C, 0x0004 Bytes, ...) -- CPU_ReadMem(4 bytes @ 0xC000089C) -- Data:  EF BE AD DE  returns 0x00 (0001ms, 0556ms total)
T1460 023:306 JLINK_ReadMem (0xC00008A0, 0x0004 Bytes, ...) -- CPU_ReadMem(4 bytes @ 0xC00008A0) -- Data:  EF BE AD DE  returns 0x00 (0001ms, 0557ms total)
T1460 023:307 JLINK_ReadMem (0xC00008BC, 0x0004 Bytes, ...) -- CPU_ReadMem(4 bytes @ 0xC00008BC) -- Data:  65 72 5F 70  returns 0x00 (0001ms, 0558ms total)
T1460 023:308 JLINK_ReadMem (0xC00008A8, 0x0004 Bytes, ...) -- CPU_ReadMem(4 bytes @ 0xC00008A8) -- Data:  A0 1E 01 00  returns 0x00 (0001ms, 0559ms total)
T1460 023:309 JLINK_ReadMem (0xC00008AC, 0x0004 Bytes, ...) -- CPU_ReadMem(4 bytes @ 0xC00008AC) -- Data:  44 09 00 00  returns 0x00 (0001ms, 0560ms total)
T1460 023:310 JLINK_ReadMem (0xC00008B0, 0x0004 Bytes, ...) -- CPU_ReadMem(4 bytes @ 0xC00008B0) -- Data:  9C 00 00 00  returns 0x00 (0001ms, 0561ms total)
T1460 023:311 JLINK_ReadMem (0xC00008B4, 0x0004 Bytes, ...) -- CPU_ReadMem(4 bytes @ 0xC00008B4) -- Data:  72 69 6E 67  returns 0x00 (0001ms, 0562ms total)
T1460 023:312 JLINK_ReadMem (0xC00008B8, 0x0004 Bytes, ...) -- CPU_ReadMem(4 bytes @ 0xC00008B8) -- Data:  62 75 66 66  returns 0x00 (0001ms, 0563ms total)
T1460 023:313 JLINK_ReadMem (0x08002B48, 0x0020 Bytes, ...) -- Read from C cache (32 bytes @ 0x08002B48) -- Data:  57 32 35 51 36 34 00 00 10 B5 E4 48 E4 49 08 60 ...  returns 0x00 (0000ms, 0563ms total)
T1460 023:313 JLINK_ReadMem (0x08002B3C, 0x0020 Bytes, ...) -- Read from C cache (32 bytes @ 0x08002B3C) -- Data:  73 70 69 31 30 00 00 00 34 5C 00 20 57 32 35 51 ...  returns 0x00 (0000ms, 0563ms total)
T1460 023:313 JLINK_ReadMem (0x00000000, 0x0001 Bytes, ...)
                JLINK_ReadMemHW(0x00000000, 0x0004 Bytes, ...) -- CPU_ReadMem(4 bytes @ 0x00000000) -- Data:  F8 0D 01 20  returns 0x00 (0001ms, 0001ms total)
                JLINK_ReadMemHW(0x08000000, 0x0004 Bytes, ...) -- CPU_ReadMem(4 bytes @ 0x08000000) -- Data:  F8 0D 01 20  returns 0x00 (0001ms, 0002ms total)
                JLINK_WriteMemHW(0x00000000, 0x0004 Bytes, ...) -- Data:  09 00 02 00 -- CPU_WriteMem(4 bytes @ 0x00000000)  returns 0x04 (0001ms, 0003ms total)
                JLINK_ReadMemHW(0x00000000, 0x0004 Bytes, ...) -- CPU_ReadMem(4 bytes @ 0x00000000) -- Data:  F8 0D 01 20  returns 0x00 (0001ms, 0004ms total)
               -- MA0 is in flash -- Unmirror addr 0x00000000 -- Read from C cache (1 bytes @ 0x08000000) -- Data:  F8  returns 0x00 (0004ms, 0567ms total)
T1460 023:317 JLINK_ReadMem (0x00000000, 0x0002 Bytes, ...) -- Unmirror addr 0x00000000 -- Read from C cache (2 bytes @ 0x08000000) -- Data:  F8 0D  returns 0x00 (0000ms, 0567ms total)
T1460 023:317 JLINK_ReadMemU32(0xE0001004, 0x0001 Items, ...) -- Data:  5B AB 6E 01  returns 0x01 (0000ms, 0567ms total)
T1460 023:317 JLINK_ReadMem (0x40013000, 0x0020 Bytes, ...) -- CPU_ReadMem(32 bytes @ 0x40013000) -- Data:  00 00 00 00 00 00 00 00 02 00 00 00 00 00 00 00 ...  returns 0x00 (0002ms, 0569ms total)
T1460 023:319 JLINK_ReadMem (0x40013020, 0x0004 Bytes, ...) -- CPU_ReadMem(4 bytes @ 0x40013020) -- Data:  00 00 00 00  returns 0x00 (0001ms, 0570ms total)
T1460 023:324 JLINK_ReadMem (0x0801E43E, 0x0002 Bytes, ...) -- Read from C cache (2 bytes @ 0x0801E43E) -- Data:  62 48  returns 0x00 (0000ms, 0570ms total)
T1460 023:324 JLINK_ReadMem (0x0801E440, 0x003C Bytes, ...) -- Read from C cache (60 bytes @ 0x0801E440) -- Data:  45 65 08 20 8D F8 05 00 04 20 8D F8 04 00 79 48 ...  returns 0x00 (0000ms, 0570ms total)
T14FC 023:957 JLINK_Step() -- Read from C cache (2 bytes @ 0x0801E442) -- Simulated  returns 0x00 (0001ms, 0571ms total)
T14FC 023:958 JLINK_ReadReg(R15)  returns 0x0801E444 (0000ms, 0571ms total)
T14FC 023:958 JLINK_ReadReg(XPSR)  returns 0x21000000 (0000ms, 0571ms total)
T14FC 023:958 JLINK_Step() -- Read from C cache (2 bytes @ 0x0801E444) -- Read from C cache (2 bytes @ 0x0801E446) -- Not simulated -- Invalidate MA0 status -- CPU_WriteMem(4 bytes @ 0xE0002008)  returns 0x00 (0006ms, 0577ms total)
T14FC 023:964 JLINK_ReadReg(R15)  returns 0x0801E448 (0000ms, 0577ms total)
T14FC 023:964 JLINK_ReadReg(XPSR)  returns 0x21000000 (0000ms, 0577ms total)
T14FC 023:964 JLINK_ReadReg(R0)  returns 0x00000008 (0000ms, 0577ms total)
T14FC 023:964 JLINK_ReadReg(R1)  returns 0x80409400 (0000ms, 0577ms total)
T14FC 023:964 JLINK_ReadReg(R2)  returns 0x00000094 (0000ms, 0577ms total)
T14FC 023:964 JLINK_ReadReg(R3)  returns 0x20005C3A (0000ms, 0577ms total)
T14FC 023:964 JLINK_ReadReg(R4)  returns 0x08038C88 (0000ms, 0577ms total)
T14FC 023:964 JLINK_ReadReg(R5)  returns 0x20005C34 (0000ms, 0577ms total)
T14FC 023:964 JLINK_ReadReg(R6)  returns 0x08002B48 (0000ms, 0577ms total)
T14FC 023:964 JLINK_ReadReg(R7)  returns 0x08002B3C (0000ms, 0577ms total)
T14FC 023:964 JLINK_ReadReg(R8)  returns 0xDEADBEEF (0000ms, 0577ms total)
T14FC 023:964 JLINK_ReadReg(R9)  returns 0xDEADBEEF (0000ms, 0577ms total)
T14FC 023:964 JLINK_ReadReg(R10)  returns 0xDEADBEEF (0000ms, 0577ms total)
T14FC 023:964 JLINK_ReadReg(R11)  returns 0xDEADBEEF (0001ms, 0578ms total)
T14FC 023:965 JLINK_ReadReg(R12)  returns 0x0801D4D5 (0000ms, 0578ms total)
T14FC 023:965 JLINK_ReadReg(R13)  returns 0xC0000860 (0000ms, 0578ms total)
T14FC 023:965 JLINK_ReadReg(R14)  returns 0x0801223B (0000ms, 0578ms total)
T14FC 023:965 JLINK_ReadReg(R15)  returns 0x0801E448 (0000ms, 0578ms total)
T14FC 023:965 JLINK_ReadReg(XPSR)  returns 0x21000000 (0000ms, 0578ms total)
T14FC 023:965 JLINK_ReadReg(MSP)  returns 0x20010DD8 (0000ms, 0578ms total)
T14FC 023:965 JLINK_ReadReg(PSP)  returns 0xC0000860 (0000ms, 0578ms total)
T14FC 023:965 JLINK_ReadReg(CFBP)  returns 0x02000000 (0000ms, 0578ms total)
T14FC 023:965 JLINK_ReadReg(FPSCR)  returns 0x03000000 (0004ms, 0582ms total)
T14FC 023:969 JLINK_ReadReg(FPS0)  returns 0x00000000 (0000ms, 0582ms total)
T14FC 023:969 JLINK_ReadReg(FPS1)  returns 0x00000000 (0000ms, 0582ms total)
T14FC 023:969 JLINK_ReadReg(FPS2)  returns 0x00000000 (0000ms, 0582ms total)
T14FC 023:969 JLINK_ReadReg(FPS3)  returns 0x00000000 (0000ms, 0582ms total)
T14FC 023:969 JLINK_ReadReg(FPS4)  returns 0x00000000 (0000ms, 0582ms total)
T14FC 023:969 JLINK_ReadReg(FPS5)  returns 0x00000000 (0000ms, 0582ms total)
T14FC 023:969 JLINK_ReadReg(FPS6)  returns 0x00000000 (0000ms, 0582ms total)
T14FC 023:969 JLINK_ReadReg(FPS7)  returns 0x00000000 (0000ms, 0582ms total)
T14FC 023:969 JLINK_ReadReg(FPS8)  returns 0x00000000 (0000ms, 0582ms total)
T14FC 023:969 JLINK_ReadReg(FPS9)  returns 0x00000000 (0000ms, 0582ms total)
T14FC 023:969 JLINK_ReadReg(FPS10)  returns 0x00000000 (0000ms, 0582ms total)
T14FC 023:969 JLINK_ReadReg(FPS11)  returns 0x00000000 (0000ms, 0582ms total)
T14FC 023:969 JLINK_ReadReg(FPS12)  returns 0x00000000 (0000ms, 0582ms total)
T14FC 023:969 JLINK_ReadReg(FPS13)  returns 0x00000000 (0000ms, 0582ms total)
T14FC 023:969 JLINK_ReadReg(FPS14)  returns 0x00000000 (0000ms, 0582ms total)
T14FC 023:969 JLINK_ReadReg(FPS15)  returns 0x00000000 (0000ms, 0582ms total)
T14FC 023:969 JLINK_ReadReg(FPS16)  returns 0x00000000 (0000ms, 0582ms total)
T14FC 023:969 JLINK_ReadReg(FPS17)  returns 0x00000000 (0000ms, 0582ms total)
T14FC 023:969 JLINK_ReadReg(FPS18)  returns 0x00000000 (0000ms, 0582ms total)
T14FC 023:969 JLINK_ReadReg(FPS19)  returns 0x00000000 (0000ms, 0582ms total)
T14FC 023:969 JLINK_ReadReg(FPS20)  returns 0x00000000 (0000ms, 0582ms total)
T14FC 023:969 JLINK_ReadReg(FPS21)  returns 0x00000000 (0000ms, 0582ms total)
T14FC 023:969 JLINK_ReadReg(FPS22)  returns 0x00000000 (0000ms, 0582ms total)
T14FC 023:969 JLINK_ReadReg(FPS23)  returns 0x00000000 (0000ms, 0582ms total)
T14FC 023:969 JLINK_ReadReg(FPS24)  returns 0x00000000 (0000ms, 0582ms total)
T14FC 023:969 JLINK_ReadReg(FPS25)  returns 0x00000000 (0000ms, 0582ms total)
T14FC 023:969 JLINK_ReadReg(FPS26)  returns 0x00000000 (0000ms, 0582ms total)
T14FC 023:969 JLINK_ReadReg(FPS27)  returns 0x00000000 (0000ms, 0582ms total)
T14FC 023:969 JLINK_ReadReg(FPS28)  returns 0x00000000 (0000ms, 0582ms total)
T14FC 023:969 JLINK_ReadReg(FPS29)  returns 0x00000000 (0000ms, 0582ms total)
T14FC 023:969 JLINK_ReadReg(FPS30)  returns 0x00000000 (0000ms, 0582ms total)
T14FC 023:969 JLINK_ReadReg(FPS31)  returns 0x00000000 (0000ms, 0582ms total)
T1460 023:970 JLINK_ReadMem (0xC000087C, 0x0004 Bytes, ...) -- CPU_ReadMem(4 bytes @ 0xC000087C) -- Data:  1D 2B 00 08  returns 0x00 (0002ms, 0584ms total)
T1460 023:972 JLINK_ReadMem (0xC000086C, 0x0004 Bytes, ...) -- CPU_ReadMem(4 bytes @ 0xC000086C) -- Data:  88 8C 03 08  returns 0x00 (0001ms, 0585ms total)
T1460 023:973 JLINK_ReadMem (0xC0000870, 0x0004 Bytes, ...) -- CPU_ReadMem(4 bytes @ 0xC0000870) -- Data:  00 00 00 00  returns 0x00 (0001ms, 0586ms total)
T1460 023:974 JLINK_ReadMem (0xC0000874, 0x0004 Bytes, ...) -- CPU_ReadMem(4 bytes @ 0xC0000874) -- Data:  EF BE AD DE  returns 0x00 (0001ms, 0587ms total)
T1460 023:975 JLINK_ReadMem (0xC0000878, 0x0004 Bytes, ...) -- CPU_ReadMem(4 bytes @ 0xC0000878) -- Data:  EF BE AD DE  returns 0x00 (0001ms, 0588ms total)
T1460 023:976 JLINK_ReadMem (0xC0000884, 0x0004 Bytes, ...) -- CPU_ReadMem(4 bytes @ 0xC0000884) -- Data:  8B E7 00 08  returns 0x00 (0001ms, 0589ms total)
T1460 023:977 JLINK_ReadMem (0xC0000880, 0x0004 Bytes, ...) -- CPU_ReadMem(4 bytes @ 0xC0000880) -- Data:  88 8C 03 08  returns 0x00 (0001ms, 0590ms total)
T1460 023:978 JLINK_ReadMem (0xC0000894, 0x0004 Bytes, ...) -- CPU_ReadMem(4 bytes @ 0xC0000894) -- Data:  81 03 00 08  returns 0x00 (0001ms, 0591ms total)
T1460 023:979 JLINK_ReadMem (0xC0000888, 0x0004 Bytes, ...) -- CPU_ReadMem(4 bytes @ 0xC0000888) -- Data:  00 00 00 00  returns 0x00 (0001ms, 0592ms total)
T1460 023:980 JLINK_ReadMem (0xC000088C, 0x0004 Bytes, ...) -- CPU_ReadMem(4 bytes @ 0xC000088C) -- Data:  EF BE AD DE  returns 0x00 (0001ms, 0593ms total)
T1460 023:981 JLINK_ReadMem (0xC0000890, 0x0004 Bytes, ...) -- CPU_ReadMem(4 bytes @ 0xC0000890) -- Data:  EF BE AD DE  returns 0x00 (0001ms, 0594ms total)
T1460 023:982 JLINK_ReadMem (0xC00008A4, 0x0004 Bytes, ...) -- CPU_ReadMem(4 bytes @ 0xC00008A4) -- Data:  27 24 01 08  returns 0x00 (0001ms, 0595ms total)
T1460 023:983 JLINK_ReadMem (0xC000089C, 0x0004 Bytes, ...) -- CPU_ReadMem(4 bytes @ 0xC000089C) -- Data:  EF BE AD DE  returns 0x00 (0001ms, 0596ms total)
T1460 023:984 JLINK_ReadMem (0xC00008A0, 0x0004 Bytes, ...) -- CPU_ReadMem(4 bytes @ 0xC00008A0) -- Data:  EF BE AD DE  returns 0x00 (0001ms, 0597ms total)
T1460 023:985 JLINK_ReadMem (0xC00008BC, 0x0004 Bytes, ...) -- CPU_ReadMem(4 bytes @ 0xC00008BC) -- Data:  65 72 5F 70  returns 0x00 (0001ms, 0598ms total)
T1460 023:986 JLINK_ReadMem (0xC00008A8, 0x0004 Bytes, ...) -- CPU_ReadMem(4 bytes @ 0xC00008A8) -- Data:  A0 1E 01 00  returns 0x00 (0001ms, 0599ms total)
T1460 023:987 JLINK_ReadMem (0xC00008AC, 0x0004 Bytes, ...) -- CPU_ReadMem(4 bytes @ 0xC00008AC) -- Data:  44 09 00 00  returns 0x00 (0001ms, 0600ms total)
T1460 023:988 JLINK_ReadMem (0xC00008B0, 0x0004 Bytes, ...) -- CPU_ReadMem(4 bytes @ 0xC00008B0) -- Data:  9C 00 00 00  returns 0x00 (0001ms, 0601ms total)
T1460 023:989 JLINK_ReadMem (0xC00008B4, 0x0004 Bytes, ...) -- CPU_ReadMem(4 bytes @ 0xC00008B4) -- Data:  72 69 6E 67  returns 0x00 (0001ms, 0602ms total)
T1460 023:990 JLINK_ReadMem (0xC00008B8, 0x0004 Bytes, ...) -- CPU_ReadMem(4 bytes @ 0xC00008B8) -- Data:  62 75 66 66  returns 0x00 (0001ms, 0603ms total)
T1460 023:991 JLINK_ReadMem (0x08002B48, 0x0020 Bytes, ...) -- CPU_ReadMem(64 bytes @ 0x08002B40) -- Updating C cache (64 bytes @ 0x08002B40) -- Read from C cache (32 bytes @ 0x08002B48) -- Data:  57 32 35 51 36 34 00 00 10 B5 E4 48 E4 49 08 60 ...  returns 0x00 (0001ms, 0604ms total)
T1460 023:992 JLINK_ReadMem (0x08002B3C, 0x0020 Bytes, ...) -- CPU_ReadMem(64 bytes @ 0x08002B00) -- Updating C cache (64 bytes @ 0x08002B00) -- Read from C cache (32 bytes @ 0x08002B3C) -- Data:  73 70 69 31 30 00 00 00 34 5C 00 20 57 32 35 51 ...  returns 0x00 (0001ms, 0605ms total)
T1460 023:993 JLINK_ReadMem (0x00000000, 0x0001 Bytes, ...)
                JLINK_ReadMemHW(0x00000000, 0x0004 Bytes, ...) -- CPU_ReadMem(4 bytes @ 0x00000000) -- Data:  F8 0D 01 20  returns 0x00 (0001ms, 0001ms total)
                JLINK_ReadMemHW(0x08000000, 0x0004 Bytes, ...) -- CPU_ReadMem(4 bytes @ 0x08000000) -- Data:  F8 0D 01 20  returns 0x00 (0001ms, 0002ms total)
                JLINK_WriteMemHW(0x00000000, 0x0004 Bytes, ...) -- Data:  09 00 02 00 -- CPU_WriteMem(4 bytes @ 0x00000000)  returns 0x04 (0001ms, 0003ms total)
                JLINK_ReadMemHW(0x00000000, 0x0004 Bytes, ...) -- CPU_ReadMem(4 bytes @ 0x00000000) -- Data:  F8 0D 01 20  returns 0x00 (0001ms, 0004ms total)
               -- MA0 is in flash -- Unmirror addr 0x00000000 -- CPU_ReadMem(64 bytes @ 0x08000000) -- Updating C cache (64 bytes @ 0x08000000) -- Read from C cache (1 bytes @ 0x08000000) -- Data:  F8  returns 0x00 (0005ms, 0610ms total)
T1460 023:998 JLINK_ReadMem (0x00000000, 0x0002 Bytes, ...) -- Unmirror addr 0x00000000 -- Read from C cache (2 bytes @ 0x08000000) -- Data:  F8 0D  returns 0x00 (0000ms, 0610ms total)
T1460 023:998 JLINK_ReadMemU32(0xE0001004, 0x0001 Items, ...) -- CPU_ReadMem(4 bytes @ 0xE0001004) -- Data:  5C AB 6E 01  returns 0x01 (0001ms, 0611ms total)
T1460 023:999 JLINK_ReadMem (0x40013000, 0x0020 Bytes, ...) -- CPU_ReadMem(32 bytes @ 0x40013000) -- Data:  00 00 00 00 00 00 00 00 02 00 00 00 00 00 00 00 ...  returns 0x00 (0001ms, 0612ms total)
T1460 024:000 JLINK_ReadMem (0x40013020, 0x0004 Bytes, ...) -- CPU_ReadMem(4 bytes @ 0x40013020) -- Data:  00 00 00 00  returns 0x00 (0001ms, 0613ms total)
T1460 024:009 JLINK_ReadMem (0x0801E440, 0x003C Bytes, ...) -- CPU_ReadMem(64 bytes @ 0x0801E440) -- Updating C cache (64 bytes @ 0x0801E440) -- Read from C cache (60 bytes @ 0x0801E440) -- Data:  45 65 08 20 8D F8 05 00 04 20 8D F8 04 00 79 48 ...  returns 0x00 (0001ms, 0614ms total)
T14FC 024:355 JLINK_Step() -- Read from C cache (2 bytes @ 0x0801E448) -- Simulated  returns 0x00 (0001ms, 0615ms total)
